# HZ S RI R 50
6000000 -0.17308274433333334 -0.9647880593333333
6001782 -0.17353508399999998 -0.9646972816666667
6003564 -0.1740975976666667 -0.964551767
6005346 -0.174667532 -0.9645125466666666
6007128 -0.17514873566666667 -0.9642694593333334
6008910 -0.17573545866666665 -0.9641523556666667
6010692 -0.17628996066666666 -0.964061121
6012474 -0.17692903666666668 -0.963969429
6014256 -0.17736416566666668 -0.96382012
6016038 -0.17797539133333332 -0.963776171
6017820 -0.17856364433333335 -0.963675201
6019602 -0.179087738 -0.9636948703333333
6021384 -0.17959680633333333 -0.9634997843333334
6023166 -0.18014637133333333 -0.9634074766666666
6024948 -0.18065633833333336 -0.9632251263333332
6026730 -0.18122097866666667 -0.9631294806666667
6028512 -0.18182594066666666 -0.9631621836666667
6030294 -0.18236020233333336 -0.962769449
6032076 -0.182850599 -0.9628375769999998
6033858 -0.18339277333333334 -0.9626939893333334
6035640 -0.18395481 -0.9625921246666667
6037422 -0.18455719933333334 -0.9625744623333334
6039204 -0.1850215496666667 -0.9624390006666667
6040986 -0.18558733133333336 -0.9623561303333333
6042768 -0.18607200666666665 -0.9621457656666667
6044550 -0.18670674666666667 -0.9620312053333334
6046332 -0.18725401633333336 -0.961916705
6048114 -0.18782841666666664 -0.9618654846666667
6049896 -0.18837313866666663 -0.961696565
6051678 -0.18890725566666666 -0.9614921013333332
6053460 -0.18949369100000002 -0.9614271523333334
6055242 -0.19009435166666666 -0.9613130293333333
6057024 -0.19062358633333334 -0.9612394173333333
6058806 -0.19118142633333335 -0.9611964426666667
6060588 -0.19162997599999998 -0.9611148436666667
6062370 -0.1921988176666667 -0.9610165953333333
6064152 -0.192668681 -0.9608746966666667
6065934 -0.19322377433333335 -0.9607126913333333
6067716 -0.19379412633333334 -0.9606160123333334
6069498 -0.194381063 -0.9604730603333334
6071280 -0.19495405266666666 -0.9603763819999999
6073062 -0.19540607899999998 -0.9602742393333333
6074844 -0.195952182 -0.9600996573333335
6076626 -0.19659096499999998 -0.959910174
6078408 -0.19718453300000002 -0.9598393436666667
6080190 -0.19775132833333334 -0.9597478509999999
6081972 -0.19831153266666668 -0.9596770606666666
6083754 -0.19874008 -0.9595963956666665
6085536 -0.19926263866666669 -0.959459603
6087318 -0.19986468066666666 -0.959320287
6089100 -0.20036899533333333 -0.9592691463333333
6090882 -0.2009424516666667 -0.9591012800000001
6092664 -0.2014650703333333 -0.958976229
6094446 -0.20188552133333335 -0.9588790139999999
6096228 -0.20238800833333334 -0.9587189153333333
6098010 -0.2029203076666667 -0.9585401416666666
6099792 -0.20348292099999998 -0.9583754736666666
6101574 -0.20409793666666665 -0.9582520126666667
6103356 -0.20464249966666667 -0.9581684469999999
6105138 -0.205161681 -0.9581124979999999
6106920 -0.20563263666666667 -0.9579944613333334
6108702 -0.2060776453333333 -0.9578368463333332
6110484 -0.206641674 -0.9577654996666666
6112266 -0.207193757 -0.9575628436666667
6114048 -0.20767051 -0.957491378
6115830 -0.20812315266666667 -0.9573579233333334
6117612 -0.20859413833333332 -0.9572066466666667
6119394 -0.20914787066666665 -0.95703127
6121176 -0.209669113 -0.9568539263333333
6122958 -0.21031056866666664 -0.9567065633333334
6124740 -0.2108522456666667 -0.9565912683333333
6126522 -0.21137464066666667 -0.9565019009999999
6128304 -0.2118673573333333 -0.9564065536666666
6130086 -0.212392663 -0.956299027
6131868 -0.21286972366666665 -0.9561227359999999
6133650 -0.21339754266666666 -0.9560028713333333
6135432 -0.21391445399999998 -0.9558721980000001
6137214 -0.214421486 -0.955761969
6138996 -0.2148242943333333 -0.9556445676666666
6140778 -0.21534498566666668 -0.9554824036666667
6142560 -0.2158569743333333 -0.9552903176666666
6144342 -0.21641106899999998 -0.955129663
6146124 -0.217040067 -0.9549987120000001
6147906 -0.217561106 -0.9548952183333334
6149688 -0.218089804 -0.9547602136666667
6151470 -0.21859361733333335 -0.95468388
6153252 -0.21906803566666666 -0.954563141
6155034 -0.21957796799999998 -0.9543746113333333
6156816 -0.22009756633333333 -0.9542663889999999
6158598 -0.22062391533333336 -0.9541229606666667
6160380 -0.22105490166666666 -0.9540459713333335
6162162 -0.22154355533333334 -0.9538479843333333
6163944 -0.22205280233333333 -0.9536909859999999
6165726 -0.22259374966666665 -0.9534898203333332
6167508 -0.22322890666666664 -0.953330894
6169290 -0.22375140066666666 -0.9532150229999999
6171072 -0.224300737 -0.9531028269999999
6172854 -0.22479724366666667 -0.9530082143333334
6174636 -0.22523116566666665 -0.9528933363333335
6176418 -0.22577843566666667 -0.952772419
6178200 -0.22632803533333332 -0.9525726040000001
6179982 -0.22679276233333334 -0.9525122446666666
6181764 -0.227263664 -0.9521352846666667
6183546 -0.22785982000000002 -0.9520062603333335
6185328 -0.22841489800000003 -0.9520608383333333
6187110 -0.22895615800000002 -0.9518933693333334
6188892 -0.229469036 -0.9517281253333333
6190674 -0.22994598266666666 -0.9516632556666668
6192456 -0.23039975766666668 -0.951497078
6194238 -0.23087454333333332 -0.9513570466666667
6196020 -0.23141525200000002 -0.9511168596666666
6197802 -0.231844932 -0.9509943123333334
6199584 -0.23237983366666667 -0.9507737556666666
6201366 -0.2329438726666667 -0.9505909086666667
6203148 -0.23353062566666669 -0.950420757
6204930 -0.23407420533333334 -0.950313707
6206712 -0.234651625 -0.95020775
6208494 -0.23514598633333336 -0.950130383
6210276 -0.23564030233333333 -0.9500952163333333
6212058 -0.23613041666666668 -0.9499395490000001
6213840 -0.2366360226666667 -0.9497897823333332
6215622 -0.23709624033333335 -0.949640731
6217404 -0.237588068 -0.9494642616666665
6219186 -0.23810946466666663 -0.9492598176666668
6220968 -0.23864648266666666 -0.949040949
6222750 -0.23916991066666668 -0.948873341
6224532 -0.23975216866666668 -0.9486968720000001
6226314 -0.24031325666666667 -0.9485597413333333
6228096 -0.24085984100000002 -0.948442141
6229878 -0.24140465266666666 -0.9484513603333333
6231660 -0.24192007366666665 -0.948244989
6233442 -0.24243570366666667 -0.9481907486666666
6235224 -0.24289519066666665 -0.9480482933333333
6237006 -0.24332720033333333 -0.9478908580000001
6238788 -0.24382612133333334 -0.9477003613333332
6240570 -0.24434405566666664 -0.9475365876666667
6242352 -0.24487104033333332 -0.9473082623333333
6244134 -0.2454174756666667 -0.9471618533333334
6245916 -0.245968724 -0.9469429453333333
6247698 -0.2465524126666667 -0.9467805029999999
6249480 -0.24712518866666666 -0.9466835063333333
6251262 -0.24766100933333335 -0.9465336203333333
6253044 -0.24818706 -0.9464833733333333
6254826 -0.24867530699999998 -0.946350018
6256608 -0.24914901466666664 -0.9462028743333333
6258390 -0.24960882966666667 -0.9460766913333334
6260172 -0.25008291 -0.9459286136666666
6261954 -0.250584632 -0.9457203543333333
6263736 -0.2510873476666667 -0.9455086786666667
6265518 -0.25159868599999996 -0.9453323483333333
6267300 -0.2521752513333333 -0.9451424876666668
6269082 -0.2527605293333333 -0.9449582896666667
6270864 -0.25330353766666663 -0.9448112646666665
6272646 -0.25386271866666665 -0.9446902076666667
6274428 -0.25440334266666664 -0.9445828396666666
6276210 -0.254892826 -0.944483777
6277992 -0.25534493733333335 -0.9443460899999999
6279774 -0.2558220623333333 -0.9442304770000001
6281556 -0.2562941113333333 -0.9440547229999999
6283338 -0.25680440666666665 -0.9438558816666666
6285120 -0.257272323 -0.9436104100000001
6286902 -0.257819394 -0.9433973826666667
6288684 -0.25838415833333334 -0.943176528
6290466 -0.2589560846666667 -0.9430331586666666
6292248 -0.2595180076666667 -0.9428667823333333
6294030 -0.26004600533333333 -0.942742348
6295812 -0.260591666 -0.9426528413333334
6297594 -0.26107426499999997 -0.9425343869999999
6299376 -0.26155792666666666 -0.9423962633333334
6301158 -0.2620317636666667 -0.9422482850000001
6302940 -0.26252165433333335 -0.9420638283333332
6304722 -0.2629755933333333 -0.9418839216666667
6306504 -0.26348554100000005 -0.9416544836666666
6308286 -0.2640114726666667 -0.9414652186666665
6310068 -0.2645369073333333 -0.9412531849999999
6311850 -0.26508254800000003 -0.9410640199999999
6313632 -0.2656416696666667 -0.9408743183333333
6315414 -0.2662042376666667 -0.9407168226666668
6317196 -0.26678304866666663 -0.9406019446666667
6318978 -0.26726371066666665 -0.9404482643333333
6320760 -0.26781096033333335 -0.9403305056666666
6322542 -0.26831181866666665 -0.9402210709999999
6324324 -0.2687820396666667 -0.9400856096666667
6326106 -0.269244323 -0.9399101933333333
6327888 -0.2696992953333333 -0.9397368433333333
6329670 -0.27019142133333335 -0.9395118156666666
6331452 -0.2706930043333333 -0.9392948946666667
6333234 -0.27120934933333335 -0.9390788873333333
6335016 -0.27175743366666666 -0.9388777813333333
6336798 -0.27232080666666664 -0.9386629463333334
6338580 -0.2729095716666667 -0.9385195176666666
6340362 -0.27345122899999996 -0.9383562803333333
6342144 -0.2739550966666667 -0.9382201036666666
6343926 -0.2745126783333333 -0.938111027
6345708 -0.27500158533333335 -0.9379763603333333
6347490 -0.2754780153333333 -0.937822898
6349272 -0.27592043066666666 -0.937674602
6351054 -0.27639144666666665 -0.9374788603333334
6352836 -0.2768895923333334 -0.9372637076666667
6354618 -0.27738979466666663 -0.9370766086666666
6356400 -0.27791975966666665 -0.9368345539999999
6358182 -0.278460115 -0.9366042216666667
6359964 -0.278946628 -0.9363769093333333
6361746 -0.2796085476666667 -0.9364155333333333
6363528 -0.280023207 -0.9362154203333333
6365310 -0.28053809199999996 -0.9359350803333334
6367092 -0.28103064499999997 -0.9359002906666666
6368874 -0.281491528 -0.9356820186666667
6370656 -0.28221972766666664 -0.9354838533333333
6372438 -0.2826462883333334 -0.935300668
6374220 -0.28317568699999995 -0.9352804223333333
6376002 -0.28371975833333335 -0.9349308609999999
6377784 -0.28425974633333334 -0.934709052
6379566 -0.2847252983333333 -0.9347774386666666
6381348 -0.285317391 -0.9345162906666666
6383130 -0.28580108266666665 -0.9344017703333334
6384912 -0.2862797776666666 -0.9340580306666667
6386694 -0.28669422866666666 -0.9339983463333333
6388476 -0.287271887 -0.9337670803333333
6390258 -0.2877620656666666 -0.9335604306666667
6392040 -0.28828292066666666 -0.9333690206666666
6393822 -0.28876854999999996 -0.9331265289999999
6395604 -0.28931967399999997 -0.9329714976666666
6397386 -0.289821148 -0.9327721993333333
6399168 -0.29039772366666666 -0.9326061010000001
6400950 -0.29090299199999997 -0.932470282
6402732 -0.2914543646666667 -0.9323548276666666
6404514 -0.29197712766666667 -0.9321637349999999
6406296 -0.29246685933333333 -0.931992789
6408078 -0.292876085 -0.931847612
6409860 -0.293480386 -0.9316175976666666
6411642 -0.29394328566666666 -0.9313985706666665
6413424 -0.29442321266666666 -0.9311467606666667
6415206 -0.29491691800000003 -0.9309659003333333
6416988 -0.29553601166666665 -0.9308076500000001
6418770 -0.29604527366666666 -0.9306091466666667
6420552 -0.29657292366666665 -0.9304237963333333
6422334 -0.2971192993333333 -0.930292825
6424116 -0.29764362166666664 -0.930150072
6425898 -0.29806572166666667 -0.9300012189999999
6427680 -0.29861815766666666 -0.9298324383333334
6429462 -0.299023966 -0.9296370743333333
6431244 -0.29950304833333335 -0.9294207296666667
6433026 -0.30002292 -0.9291812776666667
6434808 -0.30053343400000004 -0.9290093980000002
6436590 -0.3011003933333333 -0.928714494
6438372 -0.301582704 -0.9285855693333334
6440154 -0.3021298353333333 -0.928374668
6441936 -0.302686741 -0.928191821
6443718 -0.3032163083333333 -0.9280033906666666
6445500 -0.3037603993333333 -0.9278715850000001
6447282 -0.304236124 -0.9278005560000001
6449064 -0.30471305066666665 -0.9276069206666667
6450846 -0.30515034999999996 -0.9274121523333333
6452628 -0.3056349156666667 -0.9272174636666666
6454410 -0.30611195166666666 -0.9270099003333333
6456192 -0.3066257336666667 -0.926723262
6457974 -0.3071216346666667 -0.9265248380000001
6459756 -0.307672004 -0.9263009033333333
6461538 -0.30823088699999995 -0.9260787370000001
6463320 -0.3087213733333333 -0.9258992273333333
6465102 -0.30929485966666664 -0.9257726666666667
6466884 -0.3097911876666667 -0.9255493083333334
6468666 -0.310282598 -0.9254875383333333
6470448 -0.31074418633333334 -0.9252931476666667
6472230 -0.31119889033333337 -0.925115963
6474012 -0.3116503653333333 -0.924922804
6475794 -0.3121417163333333 -0.9246872466666667
6477576 -0.31262143466666664 -0.924443821
6479358 -0.313125998 -0.9242039719999999
6481140 -0.31366151566666667 -0.923962732
6482922 -0.314187467 -0.9237528443333334
6484704 -0.31472583633333334 -0.9236011703333333
6486486 -0.3152752816666667 -0.9233998059999999
6488268 -0.315783451 -0.9232448336666667
6490050 -0.316284895 -0.9230504036666667
6491832 -0.31679199166666666 -0.922837575
6493614 -0.31722930066666666 -0.9227769973333334
6495396 -0.3177706203333333 -0.92256399
6497178 -0.31814775866666667 -0.9223331013333333
6498960 -0.31864364933333333 -0.9221164386666666
6500742 -0.3191207446666667 -0.921851357
6502524 -0.3196077843333333 -0.9216331043333333
6504306 -0.320158422 -0.9214183093333334
6506088 -0.3207114833333333 -0.9212081826666667
6507870 -0.32128516833333337 -0.9210507473333333
6509652 -0.3217881123333333 -0.920836826
6511434 -0.32225205500000004 -0.9206965963333333
6513216 -0.32278565566666667 -0.9205327033333334
6514998 -0.323267877 -0.9203986523333333
6516780 -0.3237229486666667 -0.9201936126666667
6518562 -0.324199299 -0.9199992813333333
6520344 -0.3246676526666667 -0.9197884596666667
6522126 -0.32511998233333333 -0.919551571
6523908 -0.32562462499999995 -0.919286132
6525690 -0.32613136333333337 -0.9190608259999999
6527472 -0.32666762666666666 -0.9188034136666667
6529254 -0.3272256056666667 -0.918641547
6531036 -0.327754736 -0.9184871116666665
6532818 -0.3282848896666667 -0.9182781776666666
6534600 -0.32880774166666665 -0.9181049663333334
6536382 -0.32927114766666665 -0.9178744753333334
6538164 -0.329751124 -0.9178176916666668
6539946 -0.3300923706666667 -0.9169458546666668
6541728 -0.33062437166666664 -0.9172801373333334
6543510 -0.3311801056666667 -0.9170375663333333
6545292 -0.33167225133333333 -0.9168373346666666
6547074 -0.3321919936666667 -0.9167315763333334
6548856 -0.33267376800000004 -0.9164908129999999
6550638 -0.33316052966666665 -0.9163537223333332
6552420 -0.3337269823333333 -0.916202863
6554202 -0.33429347466666665 -0.9158738453333334
6555984 -0.33479473000000004 -0.9157144229999999
6557766 -0.335289518 -0.9154265919999999
6559548 -0.3358328443333333 -0.9151894053333334
6561330 -0.33634904 -0.9151589873333332
6563112 -0.33689373733333333 -0.9148550826666666
6564894 -0.33734767633333335 -0.9146662753333333
6566676 -0.33787279333333337 -0.914500018
6568458 -0.3383627436666667 -0.9143298466666666
6570240 -0.3389132223333333 -0.9141492446666667
6572022 -0.33931463933333333 -0.9139897229999999
6573804 -0.33985961466666664 -0.9137485226666667
6575586 -0.340288639 -0.9134469626666667
6577368 -0.34093605466666665 -0.9132313726666667
6579150 -0.34137950333333333 -0.913038055
6580932 -0.341864973 -0.912877659
6582714 -0.34238554033333335 -0.912541111
6584496 -0.34293683366666666 -0.91237243
6586278 -0.34345242400000003 -0.912168324
6588060 -0.3439880016666666 -0.9119874640000001
6589842 -0.344506562 -0.9117835163333333
6591624 -0.3450434703333333 -0.9116385576666666
6593406 -0.34553016233333333 -0.9114539819999999
6595188 -0.3459921576666667 -0.9111668270000001
6596970 -0.3465320863333334 -0.910993119
6598752 -0.34698018433333333 -0.9107585153333333
6600534 -0.34747008500000004 -0.9105384549999999
6602316 -0.347991695 -0.9103238186666666
6604098 -0.34846339666666665 -0.9101306400000001
6605880 -0.34900447733333334 -0.909804523
6607662 -0.3495455883333333 -0.909710745
6609444 -0.350097229 -0.9094052713333333
6611226 -0.350622942 -0.9091987013333332
6613008 -0.35110168633333333 -0.9089357656666667
6614790 -0.35165297 -0.9087480503333333
6616572 -0.35218077899999994 -0.9085903763333333
6618354 -0.3527102073333333 -0.9084193706666667
6620136 -0.35311481366666664 -0.9082486033333333
6621918 -0.35365781166666665 -0.9080059923333333
6623700 -0.35410147900000005 -0.907795449
6625482 -0.3546755513333333 -0.907577336
6627264 -0.35512813933333337 -0.9073054393333333
6629046 -0.3556416633333333 -0.907112678
6630828 -0.3561685383333333 -0.90685306
6632610 -0.35670519866666667 -0.9066697356666666
6634392 -0.35719802966666664 -0.906457484
6636174 -0.3576577703333333 -0.906321883
6637956 -0.35821559033333333 -0.9061241746666666
6639738 -0.35869962966666663 -0.9058474896666665
6641520 -0.359144638 -0.905610323
6643302 -0.3596478303333333 -0.9053854543333334
6645084 -0.36019515 -0.9051623146666666
6646866 -0.36067737133333333 -0.904928267
6648648 -0.3611822326666667 -0.9046722056666666
6650430 -0.361687849 -0.9044333099999999
6652212 -0.36222135033333336 -0.9042386806666666
6653994 -0.3626812693333334 -0.9040186006666667
6655776 -0.3632038933333333 -0.9037717383333334
6657558 -0.3637529113333333 -0.9035781423333332
6659340 -0.364227424 -0.9034309189999999
6661122 -0.36480465533333334 -0.903211733
6662904 -0.3652246893333333 -0.9030207990000001
6664686 -0.36572814000000003 -0.9028047126666667
6666468 -0.36621652033333335 -0.9025783339999999
6668250 -0.3667003313333333 -0.9024294813333333
6670032 -0.36716869466666663 -0.9021844866666667
6671814 -0.36762092500000004 -0.9019310276666667
6673596 -0.36811597166666665 -0.9016748466666668
6675378 -0.36867753666666664 -0.901456753
6677160 -0.36913871733333337 -0.9011355836666667
6678942 -0.369685054 -0.9009162186666667
6680724 -0.37022786333333335 -0.9006706076666666
6682506 -0.37074018533333336 -0.9005136886666666
6684288 -0.37130091600000004 -0.900286595
6686070 -0.3718101086666667 -0.9000911316666667
6687852 -0.37228827666666664 -0.899881363
6689634 -0.372776578 -0.8997065226666668
6691416 -0.3732389706666666 -0.8994910716666666
6693198 -0.3737359146666666 -0.8992267846666667
6694980 -0.3741974533333334 -0.8989939096666667
6696762 -0.37470400333333337 -0.8987596433333334
6698544 -0.37519661600000004 -0.898556292
6700326 -0.37568898033333337 -0.8983167609999999
6702108 -0.37623152099999996 -0.8980341753333333
6703890 -0.376678874 -0.8978821636666666
6705672 -0.37712501466666665 -0.8976407253333333
6707454 -0.37767463900000003 -0.8973714116666667
6709236 -0.3781085313333333 -0.897135377
6711018 -0.378702909 -0.896902899
6712800 -0.379135271 -0.8966056506666665
6714582 -0.37966737133333334 -0.8964185913333335
6716364 -0.380250116 -0.8961271046666667
6718146 -0.380773286 -0.8959228596666667
6719928 -0.38095588499999994 -0.8951284886666667
6721710 -0.38162790699999993 -0.8956120413333334
6723492 -0.3821971016666666 -0.8954380553333334
6725274 -0.3826571206666667 -0.8950058219999999
6727056 -0.383160899 -0.8948088686666668
6728838 -0.38364542499999993 -0.8945116003333333
6730620 -0.38422807033333334 -0.8942947586666667
6732402 -0.384653648 -0.8940964736666667
6734184 -0.3852178356666666 -0.8937501706666667
6735966 -0.385757814 -0.8935567936666665
6737748 -0.3862187963333333 -0.8933615483333334
6739530 -0.38673684 -0.8931401966666668
6741312 -0.38724332033333336 -0.892930031
6743094 -0.3877371153333333 -0.892738998
6744876 -0.3882182636666667 -0.8924649556666666
6746658 -0.38867394133333333 -0.8922195633333333
6748440 -0.389166683 -0.8919846016666666
6750222 -0.389760355 -0.891685188
6752004 -0.390128235 -0.8913861113333333
6753786 -0.3907328943333333 -0.8912964663333334
6755568 -0.391198655 -0.8909145196666667
6757350 -0.391705513 -0.8906612993333333
6759132 -0.39222417266666665 -0.8904460073333333
6760914 -0.392645697 -0.8901831506666668
